Time [s], Analyzer Name, Decoded Protocol Result
3.669517500000000,ch 1 - async serial,0x55
3.669604625000000,ch 1 - async serial,0x2C
3.669691708333333,ch 1 - async serial,0x04
3.669778833333333,ch 1 - async serial,0x36
3.669865958333333,ch 1 - async serial,0x0B
3.669953083333333,ch 1 - async serial,0x03
3.670040208333333,ch 1 - async serial,0x01
3.670127291666667,ch 1 - async serial,0x00
3.670214416666667,ch 1 - async serial,0x40
3.670301583333333,ch 1 - async serial,0x0D
3.670388666666667,ch 1 - async serial,0x02
3.670475750000000,ch 1 - async serial,0x00
3.670562875000000,ch 1 - async serial,0x33
3.670650000000000,ch 1 - async serial,0x2D
3.670737083333333,ch 1 - async serial,0x00
3.670824208333333,ch 1 - async serial,0x00
3.670911333333333,ch 1 - async serial,0xFC
3.670998458333333,ch 1 - async serial,0xFF
3.671085583333333,ch 1 - async serial,0xFF
3.671172708333333,ch 1 - async serial,0xFF
3.671259791666666,ch 1 - async serial,0xA8
3.671346875000000,ch 1 - async serial,0x0E
3.671433958333334,ch 1 - async serial,0x00
3.671521083333333,ch 1 - async serial,0x00
3.671608166666667,ch 1 - async serial,0xCE
3.671695291666667,ch 1 - async serial,0x07
3.671782333333333,ch 1 - async serial,0x00
3.671869458333333,ch 1 - async serial,0x00
3.671956541666667,ch 1 - async serial,0x02
3.672043666666667,ch 1 - async serial,0x01
3.672130750000000,ch 1 - async serial,0x03
3.672217833333333,ch 1 - async serial,0x36
3.672304916666667,ch 1 - async serial,0x00
3.672392000000000,ch 1 - async serial,0x00
3.672479125000000,ch 1 - async serial,0x00
3.672566291666667,ch 1 - async serial,0x00
3.672653375000000,ch 1 - async serial,0x00
3.672740458333333,ch 1 - async serial,0x00
3.672827583333333,ch 1 - async serial,0x00
3.672914708333333,ch 1 - async serial,0x00
3.673001833333333,ch 1 - async serial,0x10
3.673088916666666,ch 1 - async serial,0x01
3.673176041666667,ch 1 - async serial,0x8D
3.673263166666667,ch 1 - async serial,0x3F
3.673716083333333,ch 1 - async serial,0x55
3.673803166666667,ch 1 - async serial,0x2C
3.673890291666666,ch 1 - async serial,0x04
3.673977416666667,ch 1 - async serial,0x36
3.674064583333333,ch 1 - async serial,0x0B
3.674151666666666,ch 1 - async serial,0x09
3.674238791666667,ch 1 - async serial,0x02
3.674325916666667,ch 1 - async serial,0x00
3.674413041666666,ch 1 - async serial,0x00
3.674500166666667,ch 1 - async serial,0x0D
3.674587333333333,ch 1 - async serial,0x02
3.674674416666666,ch 1 - async serial,0x00
3.674761500000000,ch 1 - async serial,0x33
3.674848625000000,ch 1 - async serial,0x2D
3.674935750000000,ch 1 - async serial,0x00
3.675022875000000,ch 1 - async serial,0x00
3.675109958333334,ch 1 - async serial,0xFC
3.675197083333333,ch 1 - async serial,0xFF
3.675284208333333,ch 1 - async serial,0xFF
3.675371291666667,ch 1 - async serial,0xFF
3.675458458333333,ch 1 - async serial,0xA8
3.675545583333333,ch 1 - async serial,0x0E
3.675632666666667,ch 1 - async serial,0x00
3.675719750000000,ch 1 - async serial,0x00
3.675806875000000,ch 1 - async serial,0xCE
3.675893958333333,ch 1 - async serial,0x07
3.675981041666667,ch 1 - async serial,0x00
3.676068125000000,ch 1 - async serial,0x00
3.676155250000000,ch 1 - async serial,0x02
3.676242375000000,ch 1 - async serial,0x01
3.676329458333333,ch 1 - async serial,0x03
3.676416541666667,ch 1 - async serial,0x36
3.676503625000000,ch 1 - async serial,0x00
3.676590750000000,ch 1 - async serial,0x00
3.676677833333333,ch 1 - async serial,0x00
3.676764958333333,ch 1 - async serial,0x00
3.676852041666667,ch 1 - async serial,0x00
3.676939166666667,ch 1 - async serial,0x00
3.677026291666667,ch 1 - async serial,0x00
3.677113458333333,ch 1 - async serial,0x00
3.677200583333333,ch 1 - async serial,0x10
3.677287708333334,ch 1 - async serial,0x01
3.677374791666667,ch 1 - async serial,0x5B
3.677461916666667,ch 1 - async serial,0x93
3.677659416666667,ch 1 - async serial,0x55
3.677746541666667,ch 1 - async serial,0x15
3.677833625000000,ch 1 - async serial,0x04
3.677920750000000,ch 1 - async serial,0xA9
3.678007875000000,ch 1 - async serial,0x0B
3.678095000000000,ch 1 - async serial,0x09
3.678182125000000,ch 1 - async serial,0x03
3.678269250000000,ch 1 - async serial,0x00
3.678356333333333,ch 1 - async serial,0x00
3.678443416666667,ch 1 - async serial,0x0D
3.678530541666666,ch 1 - async serial,0x03
3.678617666666667,ch 1 - async serial,0x00
3.678704791666667,ch 1 - async serial,0x03
3.678791875000000,ch 1 - async serial,0x28
3.678879000000000,ch 1 - async serial,0x0F
3.678966125000000,ch 1 - async serial,0x28
3.679053250000000,ch 1 - async serial,0x0F
3.679140375000000,ch 1 - async serial,0x29
3.679227458333334,ch 1 - async serial,0x0F
3.679314583333333,ch 1 - async serial,0x94
3.679401708333333,ch 1 - async serial,0x8A
4.670955416666667,ch 1 - async serial,0x55
4.671042500000000,ch 1 - async serial,0x0E
4.671129583333333,ch 1 - async serial,0x04
4.671216666666667,ch 1 - async serial,0x66
4.671303791666666,ch 1 - async serial,0x0B
4.671390875000000,ch 1 - async serial,0x03
4.671477958333333,ch 1 - async serial,0x04
4.671565041666667,ch 1 - async serial,0x00
4.671652125000000,ch 1 - async serial,0x40
4.671739250000000,ch 1 - async serial,0x0E
4.671826375000000,ch 1 - async serial,0x01
4.671913500000000,ch 1 - async serial,0x01
4.672000625000000,ch 1 - async serial,0xD7
4.672087708333334,ch 1 - async serial,0x40
4.672198625000000,ch 1 - async serial,0x55
4.672285708333333,ch 1 - async serial,0x0E
4.672372833333333,ch 1 - async serial,0x04
4.672459916666667,ch 1 - async serial,0x66
4.672547000000000,ch 1 - async serial,0x0B
4.672634125000000,ch 1 - async serial,0x03
4.672721166666666,ch 1 - async serial,0x05
4.672808250000000,ch 1 - async serial,0x00
4.672895333333333,ch 1 - async serial,0x40
4.672982416666667,ch 1 - async serial,0x0E
4.673069541666667,ch 1 - async serial,0x02
4.673156666666666,ch 1 - async serial,0x00
4.673243791666667,ch 1 - async serial,0x1D
4.673330875000000,ch 1 - async serial,0x7F
4.673818458333334,ch 1 - async serial,0x55
4.673905541666667,ch 1 - async serial,0x2C
4.673992666666667,ch 1 - async serial,0x04
4.674079750000000,ch 1 - async serial,0x36
4.674166833333333,ch 1 - async serial,0x0B
4.674253958333333,ch 1 - async serial,0x03
4.674341125000000,ch 1 - async serial,0x06
4.674428250000000,ch 1 - async serial,0x00
4.674515333333333,ch 1 - async serial,0x40
4.674602416666667,ch 1 - async serial,0x0D
4.674689541666667,ch 1 - async serial,0x02
4.674776666666666,ch 1 - async serial,0x00
4.674863791666667,ch 1 - async serial,0x33
4.674950875000000,ch 1 - async serial,0x2D
4.675038000000000,ch 1 - async serial,0x00
4.675125166666667,ch 1 - async serial,0x00
4.675212291666667,ch 1 - async serial,0xFC
4.675299416666666,ch 1 - async serial,0xFF
4.675386500000000,ch 1 - async serial,0xFF
4.675473541666666,ch 1 - async serial,0xFF
4.675560625000000,ch 1 - async serial,0xA8
4.675647750000000,ch 1 - async serial,0x0E
4.675734875000000,ch 1 - async serial,0x00
4.675821958333334,ch 1 - async serial,0x00
4.675909083333333,ch 1 - async serial,0xCE
4.675996208333333,ch 1 - async serial,0x07
4.676083333333334,ch 1 - async serial,0x00
4.676170458333333,ch 1 - async serial,0x00
4.676257541666667,ch 1 - async serial,0x02
4.676344666666667,ch 1 - async serial,0x01
4.676431750000000,ch 1 - async serial,0x03
4.676518875000000,ch 1 - async serial,0x36
4.676606000000000,ch 1 - async serial,0x00
4.676693125000000,ch 1 - async serial,0x00
4.676780291666667,ch 1 - async serial,0x00
4.676867416666667,ch 1 - async serial,0x00
4.676954541666666,ch 1 - async serial,0x00
4.677041625000000,ch 1 - async serial,0x00
4.677128750000000,ch 1 - async serial,0x00
4.677215833333333,ch 1 - async serial,0x00
4.677302958333334,ch 1 - async serial,0x10
4.677390041666666,ch 1 - async serial,0x01
4.677477166666667,ch 1 - async serial,0x53
4.677564291666667,ch 1 - async serial,0x62
4.678030083333334,ch 1 - async serial,0x55
4.678117250000000,ch 1 - async serial,0x2C
4.678204416666667,ch 1 - async serial,0x04
4.678291500000000,ch 1 - async serial,0x36
4.678378666666666,ch 1 - async serial,0x0B
4.678465791666667,ch 1 - async serial,0x09
4.678552875000000,ch 1 - async serial,0x07
4.678639958333333,ch 1 - async serial,0x00
4.678727125000000,ch 1 - async serial,0x00
4.678814208333334,ch 1 - async serial,0x0D
4.678901375000000,ch 1 - async serial,0x02
4.678988500000000,ch 1 - async serial,0x00
4.679075625000000,ch 1 - async serial,0x33
4.679162750000000,ch 1 - async serial,0x2D
4.679249833333333,ch 1 - async serial,0x00
4.679336916666666,ch 1 - async serial,0x00
4.679424083333333,ch 1 - async serial,0xFC
4.679511166666667,ch 1 - async serial,0xFF
4.679598291666666,ch 1 - async serial,0xFF
4.679685375000000,ch 1 - async serial,0xFF
4.679772458333334,ch 1 - async serial,0xA8
4.679859541666667,ch 1 - async serial,0x0E
4.679946708333333,ch 1 - async serial,0x00
4.680033833333333,ch 1 - async serial,0x00
4.680120916666667,ch 1 - async serial,0xCE
4.680208041666667,ch 1 - async serial,0x07
4.680295166666666,ch 1 - async serial,0x00
4.680382250000000,ch 1 - async serial,0x00
4.680469375000000,ch 1 - async serial,0x02
4.680556500000000,ch 1 - async serial,0x01
4.680643583333334,ch 1 - async serial,0x03
4.680730666666666,ch 1 - async serial,0x36
4.680817791666667,ch 1 - async serial,0x00
4.680904875000000,ch 1 - async serial,0x00
4.680991958333333,ch 1 - async serial,0x00
4.681079125000000,ch 1 - async serial,0x00
4.681166250000000,ch 1 - async serial,0x00
4.681253333333333,ch 1 - async serial,0x00
4.681340416666667,ch 1 - async serial,0x00
4.681427541666666,ch 1 - async serial,0x00
4.681514625000000,ch 1 - async serial,0x10
4.681601750000000,ch 1 - async serial,0x01
4.681688875000000,ch 1 - async serial,0x0A
4.681775958333334,ch 1 - async serial,0x9E
4.681986208333333,ch 1 - async serial,0x55
4.682073375000000,ch 1 - async serial,0x15
4.682160500000000,ch 1 - async serial,0x04
4.682247583333333,ch 1 - async serial,0xA9
4.682334666666667,ch 1 - async serial,0x0B
4.682421791666667,ch 1 - async serial,0x09
4.682508916666666,ch 1 - async serial,0x08
4.682596000000000,ch 1 - async serial,0x00
4.682683083333333,ch 1 - async serial,0x00
4.682770208333333,ch 1 - async serial,0x0D
4.682857333333334,ch 1 - async serial,0x03
4.682944458333333,ch 1 - async serial,0x00
4.683031541666667,ch 1 - async serial,0x03
4.683118666666667,ch 1 - async serial,0x28
4.683205708333333,ch 1 - async serial,0x0F
4.683292833333334,ch 1 - async serial,0x28
4.683379875000000,ch 1 - async serial,0x0F
4.683467000000000,ch 1 - async serial,0x29
4.683554166666666,ch 1 - async serial,0x0F
4.683641250000000,ch 1 - async serial,0x0B
4.683728375000000,ch 1 - async serial,0xA9
5.673096333333334,ch 1 - async serial,0x55
5.673183458333333,ch 1 - async serial,0x2C
5.673270541666667,ch 1 - async serial,0x04
5.673357708333334,ch 1 - async serial,0x36
5.673444833333333,ch 1 - async serial,0x0B
5.673531916666667,ch 1 - async serial,0x03
5.673619041666667,ch 1 - async serial,0x09
5.673706125000000,ch 1 - async serial,0x00
5.673793208333334,ch 1 - async serial,0x40
5.673880291666666,ch 1 - async serial,0x0D
5.673967416666667,ch 1 - async serial,0x02
5.674054583333334,ch 1 - async serial,0x00
5.674141708333333,ch 1 - async serial,0x5E
5.674228833333333,ch 1 - async serial,0x2D
5.674315958333334,ch 1 - async serial,0x00
5.674403041666666,ch 1 - async serial,0x00
5.674490166666667,ch 1 - async serial,0x84
5.674577250000000,ch 1 - async serial,0xFE
5.674664416666666,ch 1 - async serial,0xFF
5.674751541666667,ch 1 - async serial,0xFF
5.674838625000000,ch 1 - async serial,0xA8
5.674925708333333,ch 1 - async serial,0x0E
5.675012833333334,ch 1 - async serial,0x00
5.675099958333333,ch 1 - async serial,0x00
5.675187041666667,ch 1 - async serial,0xCE
5.675274208333334,ch 1 - async serial,0x07
5.675361333333333,ch 1 - async serial,0x00
5.675448500000000,ch 1 - async serial,0x00
5.675535666666667,ch 1 - async serial,0x02
5.675622833333334,ch 1 - async serial,0x01
5.675710000000000,ch 1 - async serial,0x03
5.675797125000000,ch 1 - async serial,0x36
5.675884208333334,ch 1 - async serial,0x00
5.675971291666666,ch 1 - async serial,0x00
5.676058416666667,ch 1 - async serial,0x00
5.676145541666667,ch 1 - async serial,0x00
5.676232708333333,ch 1 - async serial,0x00
5.676319833333333,ch 1 - async serial,0x00
5.676406958333334,ch 1 - async serial,0x00
5.676494125000000,ch 1 - async serial,0x00
5.676581250000000,ch 1 - async serial,0x10
5.676668416666667,ch 1 - async serial,0x01
5.676755541666667,ch 1 - async serial,0xB0
5.676842625000000,ch 1 - async serial,0xD4
5.677295750000000,ch 1 - async serial,0x55
5.677382916666667,ch 1 - async serial,0x2C
5.677470041666667,ch 1 - async serial,0x04
5.677557166666666,ch 1 - async serial,0x36
5.677644333333333,ch 1 - async serial,0x0B
5.677731500000000,ch 1 - async serial,0x09
5.677818625000000,ch 1 - async serial,0x0A
5.677905750000000,ch 1 - async serial,0x00
5.677992875000000,ch 1 - async serial,0x00
5.678080041666667,ch 1 - async serial,0x0D
5.678167125000000,ch 1 - async serial,0x02
5.678254250000000,ch 1 - async serial,0x00
5.678341375000000,ch 1 - async serial,0x5E
5.678428500000000,ch 1 - async serial,0x2D
5.678515666666667,ch 1 - async serial,0x00
5.678602750000000,ch 1 - async serial,0x00
5.678689875000000,ch 1 - async serial,0x84
5.678777041666667,ch 1 - async serial,0xFE
5.678864125000000,ch 1 - async serial,0xFF
5.678951250000000,ch 1 - async serial,0xFF
5.679038375000000,ch 1 - async serial,0xA8
5.679125458333333,ch 1 - async serial,0x0E
5.679212583333333,ch 1 - async serial,0x00
5.679299666666667,ch 1 - async serial,0x00
5.679386791666666,ch 1 - async serial,0xCE
5.679473916666667,ch 1 - async serial,0x07
5.679561000000000,ch 1 - async serial,0x00
5.679648083333333,ch 1 - async serial,0x00
5.679735208333334,ch 1 - async serial,0x02
5.679822333333333,ch 1 - async serial,0x01
5.679909416666667,ch 1 - async serial,0x03
5.679996541666666,ch 1 - async serial,0x36
5.680083625000000,ch 1 - async serial,0x00
5.680170708333334,ch 1 - async serial,0x00
5.680257791666667,ch 1 - async serial,0x00
5.680344916666667,ch 1 - async serial,0x00
5.680432000000000,ch 1 - async serial,0x00
5.680519166666667,ch 1 - async serial,0x00
5.680606291666667,ch 1 - async serial,0x00
5.680693375000000,ch 1 - async serial,0x00
5.680780458333333,ch 1 - async serial,0x10
5.680867541666666,ch 1 - async serial,0x01
5.680954708333333,ch 1 - async serial,0x66
5.681041833333333,ch 1 - async serial,0x78
5.681239375000000,ch 1 - async serial,0x55
5.681326500000000,ch 1 - async serial,0x15
5.681413625000000,ch 1 - async serial,0x04
5.681500750000000,ch 1 - async serial,0xA9
5.681587875000000,ch 1 - async serial,0x0B
5.681675000000000,ch 1 - async serial,0x09
5.681762125000000,ch 1 - async serial,0x0B
5.681849208333333,ch 1 - async serial,0x00
5.681936333333334,ch 1 - async serial,0x00
5.682023416666667,ch 1 - async serial,0x0D
5.682110541666667,ch 1 - async serial,0x03
5.682197666666666,ch 1 - async serial,0x00
5.682284791666667,ch 1 - async serial,0x03
5.682371916666667,ch 1 - async serial,0x20
5.682459041666666,ch 1 - async serial,0x0F
5.682546166666667,ch 1 - async serial,0x21
5.682633291666667,ch 1 - async serial,0x0F
5.682720458333334,ch 1 - async serial,0x20
5.682807625000000,ch 1 - async serial,0x0F
5.682894750000000,ch 1 - async serial,0xDF
5.682981875000000,ch 1 - async serial,0xA8
6.674553625000000,ch 1 - async serial,0x55
6.674640708333333,ch 1 - async serial,0x0E
6.674727791666666,ch 1 - async serial,0x04
6.674814875000000,ch 1 - async serial,0x66
6.674901958333334,ch 1 - async serial,0x0B
6.674989083333333,ch 1 - async serial,0x03
6.675076166666667,ch 1 - async serial,0x0C
6.675163291666666,ch 1 - async serial,0x00
6.675250416666667,ch 1 - async serial,0x40
6.675337500000000,ch 1 - async serial,0x0E
6.675424583333333,ch 1 - async serial,0x01
6.675511708333334,ch 1 - async serial,0x01
6.675598833333333,ch 1 - async serial,0x8F
6.675685916666667,ch 1 - async serial,0x61
6.675796791666667,ch 1 - async serial,0x55
6.675883875000000,ch 1 - async serial,0x0E
6.675971000000000,ch 1 - async serial,0x04
6.676058041666667,ch 1 - async serial,0x66
6.676145166666666,ch 1 - async serial,0x0B
6.676232291666667,ch 1 - async serial,0x03
6.676319416666667,ch 1 - async serial,0x0D
6.676406541666666,ch 1 - async serial,0x00
6.676493708333333,ch 1 - async serial,0x40
6.676580791666667,ch 1 - async serial,0x0E
6.676667916666666,ch 1 - async serial,0x02
6.676755000000000,ch 1 - async serial,0x00
6.676842166666667,ch 1 - async serial,0x45
6.676929291666666,ch 1 - async serial,0x5E
6.677416833333333,ch 1 - async serial,0x55
6.677503875000000,ch 1 - async serial,0x2C
6.677591000000000,ch 1 - async serial,0x04
6.677678125000000,ch 1 - async serial,0x36
6.677765208333334,ch 1 - async serial,0x0B
6.677852250000000,ch 1 - async serial,0x03
6.677939375000000,ch 1 - async serial,0x0E
6.678026458333333,ch 1 - async serial,0x00
6.678113625000000,ch 1 - async serial,0x40
6.678200708333334,ch 1 - async serial,0x0D
6.678287791666667,ch 1 - async serial,0x02
6.678374875000000,ch 1 - async serial,0x00
6.678462000000000,ch 1 - async serial,0xF3
6.678549041666667,ch 1 - async serial,0x2C
6.678636166666666,ch 1 - async serial,0x00
6.678723291666667,ch 1 - async serial,0x00
6.678810375000000,ch 1 - async serial,0x88
6.678897500000000,ch 1 - async serial,0xFC
6.678984625000000,ch 1 - async serial,0xFF
6.679071750000000,ch 1 - async serial,0xFF
6.679158833333333,ch 1 - async serial,0xA8
6.679245958333333,ch 1 - async serial,0x0E
6.679333041666666,ch 1 - async serial,0x00
6.679420125000000,ch 1 - async serial,0x00
6.679507250000000,ch 1 - async serial,0xD1
6.679594375000000,ch 1 - async serial,0x07
6.679681458333333,ch 1 - async serial,0x00
6.679768583333333,ch 1 - async serial,0x00
6.679855708333333,ch 1 - async serial,0x02
6.679942791666667,ch 1 - async serial,0x01
6.680029916666666,ch 1 - async serial,0x03
6.680117041666667,ch 1 - async serial,0x36
6.680204125000000,ch 1 - async serial,0x00
6.680291208333333,ch 1 - async serial,0x00
6.680378333333334,ch 1 - async serial,0x00
6.680465458333333,ch 1 - async serial,0x00
6.680552625000000,ch 1 - async serial,0x00
6.680639750000000,ch 1 - async serial,0x00
6.680726875000000,ch 1 - async serial,0x00
6.680814000000000,ch 1 - async serial,0x00
6.680901125000000,ch 1 - async serial,0x10
6.680988250000000,ch 1 - async serial,0x01
6.681075375000000,ch 1 - async serial,0x69
6.681162500000000,ch 1 - async serial,0x96
6.681628208333334,ch 1 - async serial,0x55
6.681715291666666,ch 1 - async serial,0x2C
6.681802458333333,ch 1 - async serial,0x04
6.681889541666667,ch 1 - async serial,0x36
6.681976625000000,ch 1 - async serial,0x0B
6.682063750000000,ch 1 - async serial,0x09
6.682150833333333,ch 1 - async serial,0x0F
6.682237875000000,ch 1 - async serial,0x00
6.682324958333333,ch 1 - async serial,0x00
6.682412125000000,ch 1 - async serial,0x0D
6.682499250000000,ch 1 - async serial,0x02
6.682586416666667,ch 1 - async serial,0x00
6.682673500000000,ch 1 - async serial,0xF3
6.682760625000000,ch 1 - async serial,0x2C
6.682847750000000,ch 1 - async serial,0x00
6.682934875000000,ch 1 - async serial,0x00
6.683021958333334,ch 1 - async serial,0x88
6.683109083333333,ch 1 - async serial,0xFC
6.683196208333333,ch 1 - async serial,0xFF
6.683283291666666,ch 1 - async serial,0xFF
6.683370416666667,ch 1 - async serial,0xA8
6.683457500000000,ch 1 - async serial,0x0E
6.683544625000000,ch 1 - async serial,0x00
6.683631750000000,ch 1 - async serial,0x00
6.683718833333334,ch 1 - async serial,0xD1
6.683805958333333,ch 1 - async serial,0x07
